
T1844 000:569 SEGGER J-Link V4.86b Log File (0001ms, 0301ms total)
T1844 000:569 DLL Compiled: Jun 27 2014 20:11:00 (0001ms, 0301ms total)
T1844 000:569 Logging started @ 2018-05-22 21:45 (0001ms, 0301ms total)
T1844 000:570 JLINK_SetWarnOutHandler(...) (0000ms, 0301ms total)
T1844 000:570 JLINK_OpenEx(...)
Firmware: J-Link ARM V8 compiled Nov 25 2013 19:20:08
Hardware: V8.00
Feature(s): RDI,FlashDL,FlashBP,JFlash,GDBFull  returns O.K. (0279ms, 0580ms total)
T1844 000:849 JLINK_SetErrorOutHandler(...) (0000ms, 0580ms total)
T1844 000:849 JLINK_TIF_Select(JLINKARM_TIF_JTAG)  returns 0x00 (0003ms, 0583ms total)
T1844 000:852 JLINK_SetSpeed(2000) (0001ms, 0584ms total)
T1844 000:853 JLINK_GetHardwareVersion()  returns 0x13880 (0000ms, 0584ms total)
T1844 000:853 JLINK_GetDLLVersion()  returns 48602 (0000ms, 0584ms total)
T1844 000:853 JLINK_GetFirmwareString(...) (0000ms, 0584ms total)
T1844 000:853 JLINK_GetDLLVersion()  returns 48602 (0000ms, 0584ms total)
T1844 000:853 JLINK_GetCompileDateTime() (0000ms, 0584ms total)
T1844 000:854 JLINK_GetFirmwareString(...) (0000ms, 0584ms total)
T1844 000:854 JLINK_GetHardwareVersion()  returns 0x13880 (0000ms, 0584ms total)
T1844 000:866 JLINK_GetIdData(...) >0x2F8 JTAG>TotalIRLen = 9, IRPrint = 0x0011 >0x30 JTAG> >0x210 JTAG> >0x70 JTAG> >0x40 JTAG> >0x40 JTAG> >0x40 JTAG> >0x50 JTAG> >0x80 JTAG> >0x40 JTAG> >0x30 JTAG> >0x40 JTAG> >0x40 JTAG> >0x30 JTAG> >0x40 JTAG> >0x50 JTAG>Found Cortex-M3 r1p1, Little endian. -- CPU_WriteMem(4 bytes @ 0xE0002000) -- CPU_ReadMem(4 bytes @ 0xE000EDF0) -- CPU_ReadMem(4 bytes @ 0xE0002000)FPUnit: 6 code (BP) slots and 2 literal slots -- CPU_ReadMem(4 bytes @ 0xE000EDFC)
 -- CPU_ReadMem(4 bytes @ 0xE0001000) -- CPU_WriteMem(4 bytes @ 0xE0001000) -- CPU_ReadMem(4 bytes @ 0xE00FF010)TPIU fitted. -- CPU_ReadMem(4 bytes @ 0xE00FF014)ETM fitted. -- CPU_ReadMem(4 bytes @ 0xE00FF018) ScanLen=9 NumDevices=2 aId[0]=0x3BA00477 aIrRead[0]=0 aScanLen[0]=0 aScanRead[0]=0 (0038ms, 0622ms total)
T1844 000:904 JLINK_JTAG_GetDeviceID(DeviceIndex = 0)  returns 0x3BA00477 (0000ms, 0622ms total)
T1844 000:904 JLINK_JTAG_GetDeviceInfo(DeviceIndex = 0)  returns 0x00 (0000ms, 0622ms total)
T1844 000:904 JLINK_JTAG_GetDeviceID(DeviceIndex = 1)  returns 0x6418041 (0001ms, 0623ms total)
T1844 000:905 JLINK_JTAG_GetDeviceInfo(DeviceIndex = 1)  returns 0x00 (0000ms, 0623ms total)
T1844 000:905 JLINK_ReadMem (0xE00FF000, 0x0018 Bytes, ...) -- CPU is running -- CPU_ReadMem(24 bytes @ 0xE00FF000) - Data: 03 F0 F0 FF 03 20 F0 FF 03 30 F0 FF 03 10 F0 FF ...  returns 0x00 (0001ms, 0624ms total)
T1844 000:906 JLINK_ReadMemU32(0xE000ED00, 0x0001 Items, ...) -- CPU is running -- CPU_ReadMem(4 bytes @ 0xE000ED00) - Data: 31 C2 1F 41  returns 0x01 (0001ms, 0625ms total)
T1844 000:907 JLINK_Reset() -- CPU is running -- CPU_WriteMem(4 bytes @ 0xE000EDF0) -- CPU is running -- CPU_WriteMem(4 bytes @ 0xE000EDFC) -- CPU is running -- CPU_WriteMem(4 bytes @ 0xE000ED0C) -- CPU is running -- CPU_ReadMem(4 bytes @ 0xE000EDF0) -- CPU is running -- CPU_ReadMem(4 bytes @ 0xE000EDF0) -- CPU is running -- CPU_WriteMem(4 bytes @ 0xE000EDF0) -- CPU is running -- CPU_WriteMem(4 bytes @ 0xE000EDFC) -- CPU is running -- CPU_ReadMem(4 bytes @ 0xE000EDF0) >0x80 JTAG> >0x40 JTAG> >0x30 JTAG>
 >0x40 JTAG> >0x50 JTAG> >0x40 JTAG> -- CPU_WriteMem(4 bytes @ 0xE000EDFC) -- CPU_WriteMem(4 bytes @ 0xE0001028) -- CPU_WriteMem(4 bytes @ 0xE0001038) -- CPU_WriteMem(4 bytes @ 0xE0001048) -- CPU_WriteMem(4 bytes @ 0xE0001058) -- CPU_WriteMem(4 bytes @ 0xE0002000) -- CPU_ReadMem(4 bytes @ 0xE000EDFC) -- CPU_ReadMem(4 bytes @ 0xE0001000) (0031ms, 0656ms total)
T1844 000:938 JLINK_Halt()  returns 0x00 (0000ms, 0656ms total)
T1844 000:938 JLINK_IsHalted()  returns TRUE (0001ms, 0657ms total)
T1844 000:939 JLINK_ReadMemU32(0xE000EDF0, 0x0001 Items, ...) -- CPU_ReadMem(4 bytes @ 0xE000EDF0) - Data: 03 00 03 00  returns 0x01 (0001ms, 0657ms total)
T1844 000:940 JLINK_WriteU32(0xE000EDF0, 0xA05F0003) -- CPU_WriteMem(4 bytes @ 0xE000EDF0)  returns 0x00 (0000ms, 0657ms total)
T1844 000:940 JLINK_WriteU32(0xE000EDFC, 0x01000000) -- CPU_WriteMem(4 bytes @ 0xE000EDFC)  returns 0x00 (0001ms, 0658ms total)
T1844 000:941 JLINK_ReadMemU32(0xE0002000, 0x0001 Items, ...) -- CPU_ReadMem(4 bytes @ 0xE0002000) - Data: 61 02 00 00  returns 0x01 (0001ms, 0659ms total)
T1844 000:942 JLINK_ReadMemU32(0xE0001000, 0x0001 Items, ...) -- CPU_ReadMem(4 bytes @ 0xE0001000) - Data: 01 00 00 40  returns 0x01 (0001ms, 0660ms total)
T1844 000:947 JLINK_ExecCommand("Device = STM32F107VC", ...)Device "STM32F107VC" selected (256 KB flash, 64 KB RAM).  returns 0x00 (0003ms, 0663ms total)
T1844 000:950 JLINK_GetHWStatus(...)  returns 0x00 (0001ms, 0664ms total)
T1844 000:971 JLINK_GetNumBPUnits(Type = 0xFFFFFF00)  returns 0x06 (0000ms, 0664ms total)
T1844 000:971 JLINK_GetNumBPUnits(Type = 0xF0)  returns 0x2000 (0000ms, 0664ms total)
T1844 000:971 JLINK_GetNumWPUnits()  returns 0x04 (0000ms, 0664ms total)
T1844 000:992 JLINK_GetSpeed()  returns 0x7D0 (0001ms, 0665ms total)
T1844 001:010 JLINK_ReadMemU32(0xE000E004, 0x0001 Items, ...) -- CPU_ReadMem(4 bytes @ 0xE000E004) - Data: 02 00 00 00  returns 0x01 (0002ms, 0667ms total)
T1844 001:012 JLINK_WriteMem(0xE0001000, 0x001C Bytes, ...) - Data: 01 00 00 00 00 00 00 00 00 00 00 00 00 00 00 00 ... -- CPU_WriteMem(28 bytes @ 0xE0001000)  returns 0x1C (0001ms, 0668ms total)
T1844 001:013 JLINK_ReadMem (0xE0001000, 0x001C Bytes, ...) -- CPU_ReadMem(28 bytes @ 0xE0001000) - Data: 01 00 00 40 00 00 00 00 00 00 00 00 00 00 00 00 ...  returns 0x00 (0001ms, 0669ms total)
T1844 001:014 JLINK_SetResetType(JLINKARM_RESET_TYPE_NORMAL)  returns JLINKARM_RESET_TYPE_NORMAL (0000ms, 0669ms total)
T1844 001:014 JLINK_Reset() -- CPU_WriteMem(4 bytes @ 0xE000EDF0) -- CPU_WriteMem(4 bytes @ 0xE000EDFC) -- CPU_WriteMem(4 bytes @ 0xE000ED0C) -- CPU_ReadMem(4 bytes @ 0xE000EDF0) -- CPU_ReadMem(4 bytes @ 0xE000EDF0) -- CPU_WriteMem(4 bytes @ 0xE000EDF0) -- CPU_WriteMem(4 bytes @ 0xE000EDFC) -- CPU is running -- CPU_ReadMem(4 bytes @ 0xE000EDF0) >0x80 JTAG> >0x40 JTAG> >0x30 JTAG> >0x40 JTAG> >0x50 JTAG> >0x40 JTAG> -- CPU_WriteMem(4 bytes @ 0xE000EDFC) -- CPU_WriteMem(4 bytes @ 0xE0001028)
 -- CPU_WriteMem(4 bytes @ 0xE0001038) -- CPU_WriteMem(4 bytes @ 0xE0001048) -- CPU_WriteMem(4 bytes @ 0xE0001058) -- CPU_WriteMem(4 bytes @ 0xE0002000) -- CPU_ReadMem(4 bytes @ 0xE000EDFC) -- CPU_ReadMem(4 bytes @ 0xE0001000) (0034ms, 0703ms total)
T1844 001:048 JLINK_Halt()  returns 0x00 (0000ms, 0703ms total)
T1844 001:048 JLINK_IsHalted()  returns TRUE (0000ms, 0703ms total)
T1844 001:053 JLINK_WriteMem(0x20000000, 0x0164 Bytes, ...) - Data: 00 BE 0A E0 0D 78 2D 06 68 40 08 24 40 00 00 D3 ... -- CPU_WriteMem(356 bytes @ 0x20000000)  returns 0x164 (0003ms, 0706ms total)
T1844 001:056 JLINK_ReadMem (0x20000000, 0x0164 Bytes, ...) -- CPU_ReadMem(384 bytes @ 0x20000000) -- Updating C cache (384 bytes @ 0x20000000) -- Read from C cache (356 bytes @ 0x20000000) - Data: 00 BE 0A E0 0D 78 2D 06 68 40 08 24 40 00 00 D3 ...  returns 0x00 (0004ms, 0710ms total)
T1844 001:060 JLINK_WriteReg(R0, 0x08000000)  returns 0x00 (0000ms, 0710ms total)
T1844 001:060 JLINK_WriteReg(R1, 0x017D7840)  returns 0x00 (0000ms, 0710ms total)
T1844 001:060 JLINK_WriteReg(R2, 0x00000001)  returns 0x00 (0001ms, 0711ms total)
T1844 001:061 JLINK_WriteReg(R3, 0x00000000)  returns 0x00 (0000ms, 0711ms total)
T1844 001:061 JLINK_WriteReg(R4, 0x00000000)  returns 0x00 (0000ms, 0711ms total)
T1844 001:061 JLINK_WriteReg(R5, 0x00000000)  returns 0x00 (0000ms, 0711ms total)
T1844 001:061 JLINK_WriteReg(R6, 0x00000000)  returns 0x00 (0000ms, 0711ms total)
T1844 001:061 JLINK_WriteReg(R7, 0x00000000)  returns 0x00 (0000ms, 0711ms total)
T1844 001:061 JLINK_WriteReg(R8, 0x00000000)  returns 0x00 (0000ms, 0711ms total)
T1844 001:061 JLINK_WriteReg(R9, 0x20000160)  returns 0x00 (0000ms, 0711ms total)
T1844 001:061 JLINK_WriteReg(R10, 0x00000000)  returns 0x00 (0000ms, 0711ms total)
T1844 001:061 JLINK_WriteReg(R11, 0x00000000)  returns 0x00 (0001ms, 0712ms total)
T1844 001:062 JLINK_WriteReg(R12, 0x00000000)  returns 0x00 (0000ms, 0712ms total)
T1844 001:062 JLINK_WriteReg(R13 (SP), 0x20000800)  returns 0x00 (0000ms, 0712ms total)
T1844 001:062 JLINK_WriteReg(R14, 0x20000001)  returns 0x00 (0000ms, 0712ms total)
T1844 001:062 JLINK_WriteReg(R15 (PC), 0x20000038)  returns 0x00 (0000ms, 0712ms total)
T1844 001:062 JLINK_WriteReg(XPSR, 0x01000000)  returns 0x00 (0000ms, 0712ms total)
T1844 001:062 JLINK_WriteReg(MSP, 0x20000800)  returns 0x00 (0000ms, 0712ms total)
T1844 001:062 JLINK_WriteReg(PSP, 0x20000800)  returns 0x00 (0000ms, 0712ms total)
T1844 001:062 JLINK_WriteReg(CFBP, 0x00000000)  returns 0x00 (0000ms, 0712ms total)
T1844 001:062 JLINK_SetBPEx(Addr = 0x20000000, Type = 0xFFFFFFF2) -- CPU_ReadMem(2 bytes @ 0x20000000)  returns 0x00000001 (0002ms, 0714ms total)
T1844 001:064 JLINK_Go() -- CPU_WriteMem(2 bytes @ 0x20000000) -- CPU_WriteMem(4 bytes @ 0xE0002008) -- CPU_WriteMem(4 bytes @ 0xE000200C) -- CPU_WriteMem(4 bytes @ 0xE0002010) -- CPU_WriteMem(4 bytes @ 0xE0002014) -- CPU_WriteMem(4 bytes @ 0xE0002018) -- CPU_WriteMem(4 bytes @ 0xE000201C) -- CPU_WriteMem(4 bytes @ 0xE0001004) (0009ms, 0723ms total)
T1844 001:073 JLINK_IsHalted() -- CPU_ReadMem(2 bytes @ 0x20000000)  returns TRUE (0006ms, 0729ms total)
T1844 001:079 JLINK_ReadReg(R15 (PC))  returns 0x20000000 (0000ms, 0723ms total)
T1844 001:079 JLINK_ClrBPEx(BPHandle = 0x00000001)  returns 0x00 (0000ms, 0723ms total)
T1844 001:079 JLINK_ReadReg(R0)  returns 0x00000000 (0000ms, 0723ms total)
T1844 001:080 JLINK_WriteReg(R0, 0x08000000)  returns 0x00 (0000ms, 0723ms total)
T1844 001:080 JLINK_WriteReg(R1, 0x017D7840)  returns 0x00 (0000ms, 0723ms total)
T1844 001:080 JLINK_WriteReg(R2, 0x00000001)  returns 0x00 (0000ms, 0723ms total)
T1844 001:080 JLINK_WriteReg(R3, 0x00000000)  returns 0x00 (0000ms, 0723ms total)
T1844 001:080 JLINK_WriteReg(R4, 0x00000000)  returns 0x00 (0001ms, 0724ms total)
T1844 001:081 JLINK_WriteReg(R5, 0x00000000)  returns 0x00 (0000ms, 0724ms total)
T1844 001:081 JLINK_WriteReg(R6, 0x00000000)  returns 0x00 (0000ms, 0724ms total)
T1844 001:081 JLINK_WriteReg(R7, 0x00000000)  returns 0x00 (0000ms, 0724ms total)
T1844 001:081 JLINK_WriteReg(R8, 0x00000000)  returns 0x00 (0000ms, 0724ms total)
T1844 001:081 JLINK_WriteReg(R9, 0x20000160)  returns 0x00 (0000ms, 0724ms total)
T1844 001:081 JLINK_WriteReg(R10, 0x00000000)  returns 0x00 (0000ms, 0724ms total)
T1844 001:081 JLINK_WriteReg(R11, 0x00000000)  returns 0x00 (0000ms, 0724ms total)
T1844 001:081 JLINK_WriteReg(R12, 0x00000000)  returns 0x00 (0000ms, 0724ms total)
T1844 001:081 JLINK_WriteReg(R13 (SP), 0x20000800)  returns 0x00 (0001ms, 0725ms total)
T1844 001:082 JLINK_WriteReg(R14, 0x20000001)  returns 0x00 (0000ms, 0725ms total)
T1844 001:082 JLINK_WriteReg(R15 (PC), 0x2000007C)  returns 0x00 (0000ms, 0725ms total)
T1844 001:082 JLINK_WriteReg(XPSR, 0x01000000)  returns 0x00 (0000ms, 0725ms total)
T1844 001:082 JLINK_WriteReg(MSP, 0x20000800)  returns 0x00 (0000ms, 0725ms total)
T1844 001:082 JLINK_WriteReg(PSP, 0x20000800)  returns 0x00 (0000ms, 0725ms total)
T1844 001:082 JLINK_WriteReg(CFBP, 0x00000000)  returns 0x00 (0000ms, 0725ms total)
T1844 001:082 JLINK_SetBPEx(Addr = 0x20000000, Type = 0xFFFFFFF2)  returns 0x00000002 (0000ms, 0725ms total)
T1844 001:082 JLINK_Go() (0002ms, 0727ms total)
T1844 001:084 JLINK_IsHalted()  returns FALSE (0001ms, 0728ms total)
T1844 001:135 JLINK_IsHalted() -- CPU_ReadMem(2 bytes @ 0x20000000)  returns TRUE (0006ms, 0733ms total)
T1844 001:141 JLINK_ReadReg(R15 (PC))  returns 0x20000000 (0000ms, 0727ms total)
T1844 001:141 JLINK_ClrBPEx(BPHandle = 0x00000002)  returns 0x00 (0000ms, 0727ms total)
T1844 001:141 JLINK_ReadReg(R0)  returns 0x00000000 (0000ms, 0727ms total)
T1844 001:193 JLINK_WriteReg(R0, 0x00000001)  returns 0x00 (0000ms, 0727ms total)
T1844 001:194 JLINK_WriteReg(R1, 0x017D7840)  returns 0x00 (0000ms, 0728ms total)
T1844 001:194 JLINK_WriteReg(R2, 0x00000001)  returns 0x00 (0000ms, 0728ms total)
T1844 001:194 JLINK_WriteReg(R3, 0x00000000)  returns 0x00 (0000ms, 0728ms total)
T1844 001:194 JLINK_WriteReg(R4, 0x00000000)  returns 0x00 (0000ms, 0728ms total)
T1844 001:194 JLINK_WriteReg(R5, 0x00000000)  returns 0x00 (0000ms, 0728ms total)
T1844 001:195 JLINK_WriteReg(R6, 0x00000000)  returns 0x00 (0000ms, 0729ms total)
T1844 001:195 JLINK_WriteReg(R7, 0x00000000)  returns 0x00 (0000ms, 0729ms total)
T1844 001:195 JLINK_WriteReg(R8, 0x00000000)  returns 0x00 (0000ms, 0729ms total)
T1844 001:195 JLINK_WriteReg(R9, 0x20000160)  returns 0x00 (0000ms, 0729ms total)
T1844 001:195 JLINK_WriteReg(R10, 0x00000000)  returns 0x00 (0000ms, 0729ms total)
T1844 001:195 JLINK_WriteReg(R11, 0x00000000)  returns 0x00 (0000ms, 0729ms total)
T1844 001:195 JLINK_WriteReg(R12, 0x00000000)  returns 0x00 (0001ms, 0730ms total)
T1844 001:196 JLINK_WriteReg(R13 (SP), 0x20000800)  returns 0x00 (0000ms, 0730ms total)
T1844 001:196 JLINK_WriteReg(R14, 0x20000001)  returns 0x00 (0000ms, 0730ms total)
T1844 001:196 JLINK_WriteReg(R15 (PC), 0x2000006A)  returns 0x00 (0000ms, 0730ms total)
T1844 001:196 JLINK_WriteReg(XPSR, 0x01000000)  returns 0x00 (0000ms, 0730ms total)
T1844 001:196 JLINK_WriteReg(MSP, 0x20000800)  returns 0x00 (0000ms, 0730ms total)
T1844 001:196 JLINK_WriteReg(PSP, 0x20000800)  returns 0x00 (0000ms, 0730ms total)
T1844 001:196 JLINK_WriteReg(CFBP, 0x00000000)  returns 0x00 (0001ms, 0731ms total)
T1844 001:197 JLINK_SetBPEx(Addr = 0x20000000, Type = 0xFFFFFFF2)  returns 0x00000003 (0000ms, 0731ms total)
T1844 001:197 JLINK_Go() (0003ms, 0734ms total)
T1844 001:200 JLINK_IsHalted() -- CPU_ReadMem(2 bytes @ 0x20000000)  returns TRUE (0006ms, 0740ms total)
T1844 001:206 JLINK_ReadReg(R15 (PC))  returns 0x20000000 (0001ms, 0735ms total)
T1844 001:207 JLINK_ClrBPEx(BPHandle = 0x00000003)  returns 0x00 (0000ms, 0735ms total)
T1844 001:207 JLINK_ReadReg(R0)  returns 0x00000000 (0000ms, 0735ms total)
T1844 001:217 JLINK_WriteMem(0x20000000, 0x0164 Bytes, ...) - Data: 00 BE 0A E0 0D 78 2D 06 68 40 08 24 40 00 00 D3 ... -- CPU_WriteMem(356 bytes @ 0x20000000)  returns 0x164 (0003ms, 0738ms total)
T1844 001:220 JLINK_ReadMem (0x20000000, 0x0164 Bytes, ...) -- CPU_ReadMem(384 bytes @ 0x20000000) -- Updating C cache (384 bytes @ 0x20000000) -- Read from C cache (356 bytes @ 0x20000000) - Data: 00 BE 0A E0 0D 78 2D 06 68 40 08 24 40 00 00 D3 ...  returns 0x00 (0005ms, 0743ms total)
T1844 001:225 JLINK_WriteReg(R0, 0x08000000)  returns 0x00 (0000ms, 0743ms total)
T1844 001:225 JLINK_WriteReg(R1, 0x017D7840)  returns 0x00 (0000ms, 0743ms total)
T1844 001:225 JLINK_WriteReg(R2, 0x00000002)  returns 0x00 (0000ms, 0743ms total)
T1844 001:225 JLINK_WriteReg(R3, 0x00000000)  returns 0x00 (0000ms, 0743ms total)
T1844 001:226 JLINK_WriteReg(R4, 0x00000000)  returns 0x00 (0000ms, 0743ms total)
T1844 001:226 JLINK_WriteReg(R5, 0x00000000)  returns 0x00 (0000ms, 0743ms total)
T1844 001:226 JLINK_WriteReg(R6, 0x00000000)  returns 0x00 (0000ms, 0743ms total)
T1844 001:226 JLINK_WriteReg(R7, 0x00000000)  returns 0x00 (0000ms, 0743ms total)
T1844 001:226 JLINK_WriteReg(R8, 0x00000000)  returns 0x00 (0000ms, 0743ms total)
T1844 001:227 JLINK_WriteReg(R9, 0x20000160)  returns 0x00 (0000ms, 0744ms total)
T1844 001:227 JLINK_WriteReg(R10, 0x00000000)  returns 0x00 (0000ms, 0744ms total)
T1844 001:227 JLINK_WriteReg(R11, 0x00000000)  returns 0x00 (0000ms, 0744ms total)
T1844 001:227 JLINK_WriteReg(R12, 0x00000000)  returns 0x00 (0000ms, 0744ms total)
T1844 001:227 JLINK_WriteReg(R13 (SP), 0x20000800)  returns 0x00 (0000ms, 0744ms total)
T1844 001:227 JLINK_WriteReg(R14, 0x20000001)  returns 0x00 (0001ms, 0745ms total)
T1844 001:228 JLINK_WriteReg(R15 (PC), 0x20000038)  returns 0x00 (0000ms, 0745ms total)
T1844 001:228 JLINK_WriteReg(XPSR, 0x01000000)  returns 0x00 (0000ms, 0745ms total)
T1844 001:228 JLINK_WriteReg(MSP, 0x20000800)  returns 0x00 (0000ms, 0745ms total)
T1844 001:228 JLINK_WriteReg(PSP, 0x20000800)  returns 0x00 (0000ms, 0745ms total)
T1844 001:228 JLINK_WriteReg(CFBP, 0x00000000)  returns 0x00 (0000ms, 0745ms total)
T1844 001:228 JLINK_SetBPEx(Addr = 0x20000000, Type = 0xFFFFFFF2) -- CPU_ReadMem(2 bytes @ 0x20000000)  returns 0x00000004 (0002ms, 0747ms total)
T1844 001:230 JLINK_Go() -- CPU_WriteMem(2 bytes @ 0x20000000) (0003ms, 0750ms total)
T1844 001:234 JLINK_IsHalted() -- CPU_ReadMem(2 bytes @ 0x20000000)  returns TRUE (0006ms, 0757ms total)
T1844 001:240 JLINK_ReadReg(R15 (PC))  returns 0x20000000 (0000ms, 0751ms total)
T1844 001:240 JLINK_ClrBPEx(BPHandle = 0x00000004)  returns 0x00 (0000ms, 0751ms total)
T1844 001:240 JLINK_ReadReg(R0)  returns 0x00000000 (0001ms, 0752ms total)
T1844 001:241 JLINK_WriteMem(0x20000164, 0x0400 Bytes, ...) - Data: B8 C9 00 20 69 01 00 08 59 15 00 08 CD 11 00 08 ... -- CPU_WriteMem(1024 bytes @ 0x20000164)  returns 0x400 (0007ms, 0759ms total)
T1844 001:249 JLINK_ReadMem (0x20000164, 0x0400 Bytes, ...) -- CPU_ReadMem(1088 bytes @ 0x20000140) -- Updating C cache (1088 bytes @ 0x20000140) -- Read from C cache (1024 bytes @ 0x20000164) - Data: B8 C9 00 20 69 01 00 08 59 15 00 08 CD 11 00 08 ...  returns 0x00 (0008ms, 0768ms total)
T1844 001:257 JLINK_WriteReg(R0, 0x08000000)  returns 0x00 (0000ms, 0768ms total)
T1844 001:257 JLINK_WriteReg(R1, 0x00000400)  returns 0x00 (0000ms, 0768ms total)
T1844 001:257 JLINK_WriteReg(R2, 0x20000164)  returns 0x00 (0000ms, 0768ms total)
T1844 001:257 JLINK_WriteReg(R3, 0x00000000)  returns 0x00 (0000ms, 0768ms total)
T1844 001:258 JLINK_WriteReg(R4, 0x00000000)  returns 0x00 (0000ms, 0769ms total)
T1844 001:258 JLINK_WriteReg(R5, 0x00000000)  returns 0x00 (0000ms, 0769ms total)
T1844 001:258 JLINK_WriteReg(R6, 0x00000000)  returns 0x00 (0000ms, 0769ms total)
T1844 001:258 JLINK_WriteReg(R7, 0x00000000)  returns 0x00 (0000ms, 0769ms total)
T1844 001:258 JLINK_WriteReg(R8, 0x00000000)  returns 0x00 (0000ms, 0769ms total)
T1844 001:258 JLINK_WriteReg(R9, 0x20000160)  returns 0x00 (0000ms, 0769ms total)
T1844 001:258 JLINK_WriteReg(R10, 0x00000000)  returns 0x00 (0001ms, 0770ms total)
T1844 001:259 JLINK_WriteReg(R11, 0x00000000)  returns 0x00 (0000ms, 0770ms total)
T1844 001:259 JLINK_WriteReg(R12, 0x00000000)  returns 0x00 (0000ms, 0770ms total)
T1844 001:259 JLINK_WriteReg(R13 (SP), 0x20000800)  returns 0x00 (0000ms, 0770ms total)
T1844 001:259 JLINK_WriteReg(R14, 0x20000001)  returns 0x00 (0000ms, 0770ms total)
T1844 001:259 JLINK_WriteReg(R15 (PC), 0x200000F4)  returns 0x00 (0000ms, 0770ms total)
T1844 001:259 JLINK_WriteReg(XPSR, 0x01000000)  returns 0x00 (0000ms, 0770ms total)
T1844 001:259 JLINK_WriteReg(MSP, 0x20000800)  returns 0x00 (0001ms, 0771ms total)
T1844 001:260 JLINK_WriteReg(PSP, 0x20000800)  returns 0x00 (0000ms, 0771ms total)
T1844 001:260 JLINK_WriteReg(CFBP, 0x00000000)  returns 0x00 (0000ms, 0771ms total)
T1844 001:260 JLINK_SetBPEx(Addr = 0x20000000, Type = 0xFFFFFFF2)  returns 0x00000005 (0000ms, 0771ms total)
T1844 001:260 JLINK_Go() (0003ms, 0774ms total)
T1844 001:263 JLINK_IsHalted()  returns FALSE (0001ms, 0775ms total)
T1844 001:314 JLINK_IsHalted() -- CPU_ReadMem(2 bytes @ 0x20000000)  returns TRUE (0007ms, 0781ms total)
T1844 001:321 JLINK_ReadReg(R15 (PC))  returns 0x20000000 (0000ms, 0774ms total)
T1844 001:321 JLINK_ClrBPEx(BPHandle = 0x00000005)  returns 0x00 (0000ms, 0774ms total)
T1844 001:321 JLINK_ReadReg(R0)  returns 0x00000000 (0000ms, 0774ms total)
T1844 001:322 JLINK_WriteMem(0x20000164, 0x0400 Bytes, ...) - Data: 04 15 10 35 DD 60 00 E0 D8 60 64 1C 94 42 E7 D3 ... -- CPU_WriteMem(1024 bytes @ 0x20000164)  returns 0x400 (0008ms, 0782ms total)
T1844 001:330 JLINK_ReadMem (0x20000164, 0x0400 Bytes, ...) -- CPU_ReadMem(1088 bytes @ 0x20000140) -- Updating C cache (1088 bytes @ 0x20000140) -- Read from C cache (1024 bytes @ 0x20000164) - Data: 04 15 10 35 DD 60 00 E0 D8 60 64 1C 94 42 E7 D3 ...  returns 0x00 (0008ms, 0790ms total)
T1844 001:338 JLINK_WriteReg(R0, 0x08000400)  returns 0x00 (0000ms, 0790ms total)
T1844 001:338 JLINK_WriteReg(R1, 0x00000400)  returns 0x00 (0000ms, 0790ms total)
T1844 001:338 JLINK_WriteReg(R2, 0x20000164)  returns 0x00 (0000ms, 0790ms total)
T1844 001:338 JLINK_WriteReg(R3, 0x00000000)  returns 0x00 (0001ms, 0791ms total)
T1844 001:339 JLINK_WriteReg(R4, 0x00000000)  returns 0x00 (0000ms, 0791ms total)
T1844 001:339 JLINK_WriteReg(R5, 0x00000000)  returns 0x00 (0000ms, 0791ms total)
T1844 001:339 JLINK_WriteReg(R6, 0x00000000)  returns 0x00 (0000ms, 0791ms total)
T1844 001:339 JLINK_WriteReg(R7, 0x00000000)  returns 0x00 (0000ms, 0791ms total)
T1844 001:339 JLINK_WriteReg(R8, 0x00000000)  returns 0x00 (0000ms, 0791ms total)
T1844 001:339 JLINK_WriteReg(R9, 0x20000160)  returns 0x00 (0000ms, 0791ms total)
T1844 001:340 JLINK_WriteReg(R10, 0x00000000)  returns 0x00 (0000ms, 0792ms total)
T1844 001:340 JLINK_WriteReg(R11, 0x00000000)  returns 0x00 (0000ms, 0792ms total)
T1844 001:340 JLINK_WriteReg(R12, 0x00000000)  returns 0x00 (0000ms, 0792ms total)
T1844 001:340 JLINK_WriteReg(R13 (SP), 0x20000800)  returns 0x00 (0000ms, 0792ms total)
T1844 001:340 JLINK_WriteReg(R14, 0x20000001)  returns 0x00 (0000ms, 0792ms total)
T1844 001:340 JLINK_WriteReg(R15 (PC), 0x200000F4)  returns 0x00 (0000ms, 0792ms total)
T1844 001:340 JLINK_WriteReg(XPSR, 0x01000000)  returns 0x00 (0000ms, 0792ms total)
T1844 001:341 JLINK_WriteReg(MSP, 0x20000800)  returns 0x00 (0000ms, 0793ms total)
T1844 001:341 JLINK_WriteReg(PSP, 0x20000800)  returns 0x00 (0000ms, 0793ms total)
T1844 001:341 JLINK_WriteReg(CFBP, 0x00000000)  returns 0x00 (0000ms, 0793ms total)
T1844 001:341 JLINK_SetBPEx(Addr = 0x20000000, Type = 0xFFFFFFF2)  returns 0x00000006 (0000ms, 0793ms total)
T1844 001:341 JLINK_Go() (0003ms, 0796ms total)
T1844 001:344 JLINK_IsHalted()  returns FALSE (0001ms, 0797ms total)
T1844 001:395 JLINK_IsHalted() -- CPU_ReadMem(2 bytes @ 0x20000000)  returns TRUE (0007ms, 0803ms total)
T1844 001:402 JLINK_ReadReg(R15 (PC))  returns 0x20000000 (0000ms, 0796ms total)
T1844 001:402 JLINK_ClrBPEx(BPHandle = 0x00000006)  returns 0x00 (0000ms, 0796ms total)
T1844 001:402 JLINK_ReadReg(R0)  returns 0x00000000 (0000ms, 0796ms total)
T1844 001:403 JLINK_WriteMem(0x20000164, 0x0400 Bytes, ...) - Data: 01 D1 00 20 10 BD 02 48 40 69 80 B2 FA E7 00 00 ... -- CPU_WriteMem(1024 bytes @ 0x20000164)  returns 0x400 (0008ms, 0804ms total)
T1844 001:411 JLINK_ReadMem (0x20000164, 0x0400 Bytes, ...) -- CPU_ReadMem(1088 bytes @ 0x20000140) -- Updating C cache (1088 bytes @ 0x20000140) -- Read from C cache (1024 bytes @ 0x20000164) - Data: 01 D1 00 20 10 BD 02 48 40 69 80 B2 FA E7 00 00 ...  returns 0x00 (0009ms, 0813ms total)
T1844 001:420 JLINK_WriteReg(R0, 0x08000800)  returns 0x00 (0000ms, 0813ms total)
T1844 001:420 JLINK_WriteReg(R1, 0x00000400)  returns 0x00 (0000ms, 0813ms total)
T1844 001:420 JLINK_WriteReg(R2, 0x20000164)  returns 0x00 (0000ms, 0813ms total)
T1844 001:421 JLINK_WriteReg(R3, 0x00000000)  returns 0x00 (0000ms, 0814ms total)
T1844 001:421 JLINK_WriteReg(R4, 0x00000000)  returns 0x00 (0000ms, 0814ms total)
T1844 001:421 JLINK_WriteReg(R5, 0x00000000)  returns 0x00 (0000ms, 0814ms total)
T1844 001:421 JLINK_WriteReg(R6, 0x00000000)  returns 0x00 (0000ms, 0814ms total)
T1844 001:421 JLINK_WriteReg(R7, 0x00000000)  returns 0x00 (0000ms, 0814ms total)
T1844 001:421 JLINK_WriteReg(R8, 0x00000000)  returns 0x00 (0000ms, 0814ms total)
T1844 001:421 JLINK_WriteReg(R9, 0x20000160)  returns 0x00 (0001ms, 0815ms total)
T1844 001:422 JLINK_WriteReg(R10, 0x00000000)  returns 0x00 (0000ms, 0815ms total)
T1844 001:422 JLINK_WriteReg(R11, 0x00000000)  returns 0x00 (0000ms, 0815ms total)
T1844 001:422 JLINK_WriteReg(R12, 0x00000000)  returns 0x00 (0000ms, 0815ms total)
T1844 001:422 JLINK_WriteReg(R13 (SP), 0x20000800)  returns 0x00 (0000ms, 0815ms total)
T1844 001:422 JLINK_WriteReg(R14, 0x20000001)  returns 0x00 (0000ms, 0815ms total)
T1844 001:422 JLINK_WriteReg(R15 (PC), 0x200000F4)  returns 0x00 (0000ms, 0815ms total)
T1844 001:422 JLINK_WriteReg(XPSR, 0x01000000)  returns 0x00 (0001ms, 0816ms total)
T1844 001:423 JLINK_WriteReg(MSP, 0x20000800)  returns 0x00 (0000ms, 0816ms total)
T1844 001:423 JLINK_WriteReg(PSP, 0x20000800)  returns 0x00 (0000ms, 0816ms total)
T1844 001:423 JLINK_WriteReg(CFBP, 0x00000000)  returns 0x00 (0000ms, 0816ms total)
T1844 001:423 JLINK_SetBPEx(Addr = 0x20000000, Type = 0xFFFFFFF2)  returns 0x00000007 (0000ms, 0816ms total)
T1844 001:423 JLINK_Go() (0003ms, 0819ms total)
T1844 001:426 JLINK_IsHalted()  returns FALSE (0001ms, 0820ms total)
T1844 001:477 JLINK_IsHalted() -- CPU_ReadMem(2 bytes @ 0x20000000)  returns TRUE (0007ms, 0826ms total)
T1844 001:484 JLINK_ReadReg(R15 (PC))  returns 0x20000000 (0000ms, 0819ms total)
T1844 001:484 JLINK_ClrBPEx(BPHandle = 0x00000007)  returns 0x00 (0000ms, 0819ms total)
T1844 001:484 JLINK_ReadReg(R0)  returns 0x00000000 (0000ms, 0819ms total)
T1844 001:485 JLINK_WriteMem(0x20000164, 0x0400 Bytes, ...) - Data: FB FF 03 08 2D E9 F0 41 04 46 0D 46 16 46 00 27 ... -- CPU_WriteMem(1024 bytes @ 0x20000164)  returns 0x400 (0008ms, 0827ms total)
T1844 001:493 JLINK_ReadMem (0x20000164, 0x0400 Bytes, ...) -- CPU_ReadMem(1088 bytes @ 0x20000140) -- Updating C cache (1088 bytes @ 0x20000140) -- Read from C cache (1024 bytes @ 0x20000164) - Data: FB FF 03 08 2D E9 F0 41 04 46 0D 46 16 46 00 27 ...  returns 0x00 (0008ms, 0835ms total)
T1844 001:501 JLINK_WriteReg(R0, 0x08000C00)  returns 0x00 (0000ms, 0835ms total)
T1844 001:501 JLINK_WriteReg(R1, 0x00000400)  returns 0x00 (0000ms, 0835ms total)
T1844 001:501 JLINK_WriteReg(R2, 0x20000164)  returns 0x00 (0001ms, 0836ms total)
T1844 001:502 JLINK_WriteReg(R3, 0x00000000)  returns 0x00 (0000ms, 0836ms total)
T1844 001:502 JLINK_WriteReg(R4, 0x00000000)  returns 0x00 (0000ms, 0836ms total)
T1844 001:502 JLINK_WriteReg(R5, 0x00000000)  returns 0x00 (0000ms, 0836ms total)
T1844 001:502 JLINK_WriteReg(R6, 0x00000000)  returns 0x00 (0000ms, 0836ms total)
T1844 001:502 JLINK_WriteReg(R7, 0x00000000)  returns 0x00 (0000ms, 0836ms total)
T1844 001:502 JLINK_WriteReg(R8, 0x00000000)  returns 0x00 (0000ms, 0836ms total)
T1844 001:502 JLINK_WriteReg(R9, 0x20000160)  returns 0x00 (0001ms, 0837ms total)
T1844 001:503 JLINK_WriteReg(R10, 0x00000000)  returns 0x00 (0000ms, 0837ms total)
T1844 001:503 JLINK_WriteReg(R11, 0x00000000)  returns 0x00 (0000ms, 0837ms total)
T1844 001:503 JLINK_WriteReg(R12, 0x00000000)  returns 0x00 (0000ms, 0837ms total)
T1844 001:503 JLINK_WriteReg(R13 (SP), 0x20000800)  returns 0x00 (0000ms, 0837ms total)
T1844 001:503 JLINK_WriteReg(R14, 0x20000001)  returns 0x00 (0000ms, 0837ms total)
T1844 001:503 JLINK_WriteReg(R15 (PC), 0x200000F4)  returns 0x00 (0001ms, 0838ms total)
T1844 001:504 JLINK_WriteReg(XPSR, 0x01000000)  returns 0x00 (0000ms, 0838ms total)
T1844 001:504 JLINK_WriteReg(MSP, 0x20000800)  returns 0x00 (0000ms, 0838ms total)
T1844 001:504 JLINK_WriteReg(PSP, 0x20000800)  returns 0x00 (0000ms, 0838ms total)
T1844 001:504 JLINK_WriteReg(CFBP, 0x00000000)  returns 0x00 (0000ms, 0838ms total)
T1844 001:504 JLINK_SetBPEx(Addr = 0x20000000, Type = 0xFFFFFFF2)  returns 0x00000008 (0000ms, 0838ms total)
T1844 001:504 JLINK_Go() (0003ms, 0841ms total)
T1844 001:507 JLINK_IsHalted()  returns FALSE (0001ms, 0842ms total)
T1844 001:558 JLINK_IsHalted() -- CPU_ReadMem(2 bytes @ 0x20000000)  returns TRUE (0007ms, 0848ms total)
T1844 001:565 JLINK_ReadReg(R15 (PC))  returns 0x20000000 (0000ms, 0841ms total)
T1844 001:565 JLINK_ClrBPEx(BPHandle = 0x00000008)  returns 0x00 (0000ms, 0841ms total)
T1844 001:565 JLINK_ReadReg(R0)  returns 0x00000000 (0000ms, 0841ms total)
T1844 001:566 JLINK_WriteMem(0x20000164, 0x0400 Bytes, ...) - Data: 01 FE DD E9 00 01 C4 E9 00 01 62 B6 1C BD 00 00 ... -- CPU_WriteMem(1024 bytes @ 0x20000164)  returns 0x400 (0008ms, 0849ms total)
T1844 001:574 JLINK_ReadMem (0x20000164, 0x0400 Bytes, ...) -- CPU_ReadMem(1088 bytes @ 0x20000140) -- Updating C cache (1088 bytes @ 0x20000140) -- Read from C cache (1024 bytes @ 0x20000164) - Data: 01 FE DD E9 00 01 C4 E9 00 01 62 B6 1C BD 00 00 ...  returns 0x00 (0008ms, 0857ms total)
T1844 001:582 JLINK_WriteReg(R0, 0x08001000)  returns 0x00 (0000ms, 0857ms total)
T1844 001:582 JLINK_WriteReg(R1, 0x00000400)  returns 0x00 (0000ms, 0857ms total)
T1844 001:582 JLINK_WriteReg(R2, 0x20000164)  returns 0x00 (0001ms, 0858ms total)
T1844 001:583 JLINK_WriteReg(R3, 0x00000000)  returns 0x00 (0000ms, 0858ms total)
T1844 001:583 JLINK_WriteReg(R4, 0x00000000)  returns 0x00 (0000ms, 0858ms total)
T1844 001:583 JLINK_WriteReg(R5, 0x00000000)  returns 0x00 (0000ms, 0858ms total)
T1844 001:583 JLINK_WriteReg(R6, 0x00000000)  returns 0x00 (0000ms, 0858ms total)
T1844 001:583 JLINK_WriteReg(R7, 0x00000000)  returns 0x00 (0000ms, 0858ms total)
T1844 001:583 JLINK_WriteReg(R8, 0x00000000)  returns 0x00 (0000ms, 0858ms total)
T1844 001:583 JLINK_WriteReg(R9, 0x20000160)  returns 0x00 (0001ms, 0859ms total)
T1844 001:584 JLINK_WriteReg(R10, 0x00000000)  returns 0x00 (0000ms, 0859ms total)
T1844 001:584 JLINK_WriteReg(R11, 0x00000000)  returns 0x00 (0000ms, 0859ms total)
T1844 001:584 JLINK_WriteReg(R12, 0x00000000)  returns 0x00 (0000ms, 0859ms total)
T1844 001:584 JLINK_WriteReg(R13 (SP), 0x20000800)  returns 0x00 (0000ms, 0859ms total)
T1844 001:584 JLINK_WriteReg(R14, 0x20000001)  returns 0x00 (0000ms, 0859ms total)
T1844 001:584 JLINK_WriteReg(R15 (PC), 0x200000F4)  returns 0x00 (0000ms, 0859ms total)
T1844 001:584 JLINK_WriteReg(XPSR, 0x01000000)  returns 0x00 (0001ms, 0860ms total)
T1844 001:585 JLINK_WriteReg(MSP, 0x20000800)  returns 0x00 (0000ms, 0860ms total)
T1844 001:585 JLINK_WriteReg(PSP, 0x20000800)  returns 0x00 (0000ms, 0860ms total)
T1844 001:585 JLINK_WriteReg(CFBP, 0x00000000)  returns 0x00 (0000ms, 0860ms total)
T1844 001:585 JLINK_SetBPEx(Addr = 0x20000000, Type = 0xFFFFFFF2)  returns 0x00000009 (0000ms, 0860ms total)
T1844 001:585 JLINK_Go() (0002ms, 0862ms total)
T1844 001:588 JLINK_IsHalted()  returns FALSE (0000ms, 0863ms total)
T1844 001:638 JLINK_IsHalted() -- CPU_ReadMem(2 bytes @ 0x20000000)  returns TRUE (0005ms, 0868ms total)
T1844 001:643 JLINK_ReadReg(R15 (PC))  returns 0x20000000 (0000ms, 0863ms total)
T1844 001:643 JLINK_ClrBPEx(BPHandle = 0x00000009)  returns 0x00 (0001ms, 0864ms total)
T1844 001:644 JLINK_ReadReg(R0)  returns 0x00000000 (0000ms, 0864ms total)
T1844 001:644 JLINK_WriteMem(0x20000164, 0x0400 Bytes, ...) - Data: 40 78 23 28 79 D1 08 46 00 68 80 78 08 31 08 60 ... -- CPU_WriteMem(1024 bytes @ 0x20000164)  returns 0x400 (0007ms, 0871ms total)
T1844 001:651 JLINK_ReadMem (0x20000164, 0x0400 Bytes, ...) -- CPU_ReadMem(1088 bytes @ 0x20000140) -- Updating C cache (1088 bytes @ 0x20000140) -- Read from C cache (1024 bytes @ 0x20000164) - Data: 40 78 23 28 79 D1 08 46 00 68 80 78 08 31 08 60 ...  returns 0x00 (0008ms, 0879ms total)
T1844 001:659 JLINK_WriteReg(R0, 0x08001400)  returns 0x00 (0000ms, 0879ms total)
T1844 001:659 JLINK_WriteReg(R1, 0x00000400)  returns 0x00 (0000ms, 0879ms total)
T1844 001:659 JLINK_WriteReg(R2, 0x20000164)  returns 0x00 (0000ms, 0879ms total)
T1844 001:659 JLINK_WriteReg(R3, 0x00000000)  returns 0x00 (0000ms, 0879ms total)
T1844 001:659 JLINK_WriteReg(R4, 0x00000000)  returns 0x00 (0000ms, 0879ms total)
T1844 001:659 JLINK_WriteReg(R5, 0x00000000)  returns 0x00 (0000ms, 0879ms total)
T1844 001:659 JLINK_WriteReg(R6, 0x00000000)  returns 0x00 (0001ms, 0880ms total)
T1844 001:660 JLINK_WriteReg(R7, 0x00000000)  returns 0x00 (0000ms, 0880ms total)
T1844 001:660 JLINK_WriteReg(R8, 0x00000000)  returns 0x00 (0000ms, 0880ms total)
T1844 001:660 JLINK_WriteReg(R9, 0x20000160)  returns 0x00 (0000ms, 0880ms total)
T1844 001:660 JLINK_WriteReg(R10, 0x00000000)  returns 0x00 (0000ms, 0880ms total)
T1844 001:660 JLINK_WriteReg(R11, 0x00000000)  returns 0x00 (0000ms, 0880ms total)
T1844 001:660 JLINK_WriteReg(R12, 0x00000000)  returns 0x00 (0000ms, 0880ms total)
T1844 001:660 JLINK_WriteReg(R13 (SP), 0x20000800)  returns 0x00 (0000ms, 0880ms total)
T1844 001:660 JLINK_WriteReg(R14, 0x20000001)  returns 0x00 (0000ms, 0880ms total)
T1844 001:660 JLINK_WriteReg(R15 (PC), 0x200000F4)  returns 0x00 (0000ms, 0880ms total)
T1844 001:660 JLINK_WriteReg(XPSR, 0x01000000)  returns 0x00 (0000ms, 0880ms total)
T1844 001:660 JLINK_WriteReg(MSP, 0x20000800)  returns 0x00 (0000ms, 0880ms total)
T1844 001:660 JLINK_WriteReg(PSP, 0x20000800)  returns 0x00 (0001ms, 0881ms total)
T1844 001:661 JLINK_WriteReg(CFBP, 0x00000000)  returns 0x00 (0000ms, 0881ms total)
T1844 001:661 JLINK_SetBPEx(Addr = 0x20000000, Type = 0xFFFFFFF2)  returns 0x0000000A (0000ms, 0881ms total)
T1844 001:661 JLINK_Go() (0002ms, 0883ms total)
T1844 001:663 JLINK_IsHalted()  returns FALSE (0001ms, 0884ms total)
T1844 001:714 JLINK_IsHalted() -- CPU_ReadMem(2 bytes @ 0x20000000)  returns TRUE (0007ms, 0890ms total)
T1844 001:721 JLINK_ReadReg(R15 (PC))  returns 0x20000000 (0000ms, 0883ms total)
T1844 001:721 JLINK_ClrBPEx(BPHandle = 0x0000000A)  returns 0x00 (0000ms, 0883ms total)
T1844 001:721 JLINK_ReadReg(R0)  returns 0x00000000 (0000ms, 0883ms total)
T1844 001:722 JLINK_WriteMem(0x20000164, 0x0400 Bytes, ...) - Data: D8 F8 04 80 08 F4 E0 61 09 0A DF F8 6C 80 18 F8 ... -- CPU_WriteMem(1024 bytes @ 0x20000164)  returns 0x400 (0007ms, 0890ms total)
T1844 001:729 JLINK_ReadMem (0x20000164, 0x0400 Bytes, ...) -- CPU_ReadMem(1088 bytes @ 0x20000140) -- Updating C cache (1088 bytes @ 0x20000140) -- Read from C cache (1024 bytes @ 0x20000164) - Data: D8 F8 04 80 08 F4 E0 61 09 0A DF F8 6C 80 18 F8 ...  returns 0x00 (0009ms, 0899ms total)
T1844 001:738 JLINK_WriteReg(R0, 0x08001800)  returns 0x00 (0000ms, 0899ms total)
T1844 001:738 JLINK_WriteReg(R1, 0x00000400)  returns 0x00 (0000ms, 0899ms total)
T1844 001:738 JLINK_WriteReg(R2, 0x20000164)  returns 0x00 (0000ms, 0899ms total)
T1844 001:738 JLINK_WriteReg(R3, 0x00000000)  returns 0x00 (0000ms, 0899ms total)
T1844 001:738 JLINK_WriteReg(R4, 0x00000000)  returns 0x00 (0000ms, 0899ms total)
T1844 001:738 JLINK_WriteReg(R5, 0x00000000)  returns 0x00 (0000ms, 0899ms total)
T1844 001:738 JLINK_WriteReg(R6, 0x00000000)  returns 0x00 (0001ms, 0900ms total)
T1844 001:739 JLINK_WriteReg(R7, 0x00000000)  returns 0x00 (0000ms, 0900ms total)
T1844 001:739 JLINK_WriteReg(R8, 0x00000000)  returns 0x00 (0000ms, 0900ms total)
T1844 001:739 JLINK_WriteReg(R9, 0x20000160)  returns 0x00 (0000ms, 0900ms total)
T1844 001:739 JLINK_WriteReg(R10, 0x00000000)  returns 0x00 (0000ms, 0900ms total)
T1844 001:739 JLINK_WriteReg(R11, 0x00000000)  returns 0x00 (0000ms, 0900ms total)
T1844 001:739 JLINK_WriteReg(R12, 0x00000000)  returns 0x00 (0000ms, 0900ms total)
T1844 001:740 JLINK_WriteReg(R13 (SP), 0x20000800)  returns 0x00 (0000ms, 0901ms total)
T1844 001:740 JLINK_WriteReg(R14, 0x20000001)  returns 0x00 (0000ms, 0901ms total)
T1844 001:740 JLINK_WriteReg(R15 (PC), 0x200000F4)  returns 0x00 (0000ms, 0901ms total)
T1844 001:740 JLINK_WriteReg(XPSR, 0x01000000)  returns 0x00 (0000ms, 0901ms total)
T1844 001:740 JLINK_WriteReg(MSP, 0x20000800)  returns 0x00 (0000ms, 0901ms total)
T1844 001:740 JLINK_WriteReg(PSP, 0x20000800)  returns 0x00 (0000ms, 0901ms total)
T1844 001:740 JLINK_WriteReg(CFBP, 0x00000000)  returns 0x00 (0000ms, 0901ms total)
T1844 001:741 JLINK_SetBPEx(Addr = 0x20000000, Type = 0xFFFFFFF2)  returns 0x0000000B (0000ms, 0902ms total)
T1844 001:741 JLINK_Go() (0002ms, 0904ms total)
T1844 001:743 JLINK_IsHalted()  returns FALSE (0001ms, 0905ms total)
T1844 001:794 JLINK_IsHalted() -- CPU_ReadMem(2 bytes @ 0x20000000)  returns TRUE (0006ms, 0910ms total)
T1844 001:800 JLINK_ReadReg(R15 (PC))  returns 0x20000000 (0000ms, 0904ms total)
T1844 001:800 JLINK_ClrBPEx(BPHandle = 0x0000000B)  returns 0x00 (0000ms, 0904ms total)
T1844 001:800 JLINK_ReadReg(R0)  returns 0x00000000 (0001ms, 0905ms total)
T1844 001:802 JLINK_WriteMem(0x20000164, 0x0400 Bytes, ...) - Data: 4F F4 7F 00 88 60 00 20 C8 62 FF F7 27 FF 4F F0 ... -- CPU_WriteMem(1024 bytes @ 0x20000164)  returns 0x400 (0007ms, 0912ms total)
T1844 001:809 JLINK_ReadMem (0x20000164, 0x0400 Bytes, ...) -- CPU_ReadMem(1088 bytes @ 0x20000140) -- Updating C cache (1088 bytes @ 0x20000140) -- Read from C cache (1024 bytes @ 0x20000164) - Data: 4F F4 7F 00 88 60 00 20 C8 62 FF F7 27 FF 4F F0 ...  returns 0x00 (0008ms, 0920ms total)
T1844 001:817 JLINK_WriteReg(R0, 0x08001C00)  returns 0x00 (0000ms, 0920ms total)
T1844 001:817 JLINK_WriteReg(R1, 0x00000400)  returns 0x00 (0000ms, 0920ms total)
T1844 001:817 JLINK_WriteReg(R2, 0x20000164)  returns 0x00 (0001ms, 0921ms total)
T1844 001:818 JLINK_WriteReg(R3, 0x00000000)  returns 0x00 (0000ms, 0921ms total)
T1844 001:818 JLINK_WriteReg(R4, 0x00000000)  returns 0x00 (0000ms, 0921ms total)
T1844 001:818 JLINK_WriteReg(R5, 0x00000000)  returns 0x00 (0000ms, 0921ms total)
T1844 001:818 JLINK_WriteReg(R6, 0x00000000)  returns 0x00 (0000ms, 0921ms total)
T1844 001:818 JLINK_WriteReg(R7, 0x00000000)  returns 0x00 (0000ms, 0921ms total)
T1844 001:818 JLINK_WriteReg(R8, 0x00000000)  returns 0x00 (0000ms, 0921ms total)
T1844 001:819 JLINK_WriteReg(R9, 0x20000160)  returns 0x00 (0000ms, 0922ms total)
T1844 001:819 JLINK_WriteReg(R10, 0x00000000)  returns 0x00 (0000ms, 0922ms total)
T1844 001:819 JLINK_WriteReg(R11, 0x00000000)  returns 0x00 (0000ms, 0922ms total)
T1844 001:819 JLINK_WriteReg(R12, 0x00000000)  returns 0x00 (0000ms, 0922ms total)
T1844 001:819 JLINK_WriteReg(R13 (SP), 0x20000800)  returns 0x00 (0000ms, 0922ms total)
T1844 001:819 JLINK_WriteReg(R14, 0x20000001)  returns 0x00 (0000ms, 0922ms total)
T1844 001:819 JLINK_WriteReg(R15 (PC), 0x200000F4)  returns 0x00 (0000ms, 0922ms total)
T1844 001:820 JLINK_WriteReg(XPSR, 0x01000000)  returns 0x00 (0000ms, 0923ms total)
T1844 001:820 JLINK_WriteReg(MSP, 0x20000800)  returns 0x00 (0000ms, 0923ms total)
T1844 001:820 JLINK_WriteReg(PSP, 0x20000800)  returns 0x00 (0000ms, 0923ms total)
T1844 001:820 JLINK_WriteReg(CFBP, 0x00000000)  returns 0x00 (0000ms, 0923ms total)
T1844 001:820 JLINK_SetBPEx(Addr = 0x20000000, Type = 0xFFFFFFF2)  returns 0x0000000C (0000ms, 0923ms total)
T1844 001:820 JLINK_Go() (0003ms, 0926ms total)
T1844 001:823 JLINK_IsHalted()  returns FALSE (0001ms, 0927ms total)
T1844 001:874 JLINK_IsHalted() -- CPU_ReadMem(2 bytes @ 0x20000000)  returns TRUE (0006ms, 0932ms total)
T1844 001:881 JLINK_ReadReg(R15 (PC))  returns 0x20000000 (0000ms, 0926ms total)
T1844 001:881 JLINK_ClrBPEx(BPHandle = 0x0000000C)  returns 0x00 (0000ms, 0926ms total)
T1844 001:881 JLINK_ReadReg(R0)  returns 0x00000000 (0000ms, 0926ms total)
T1844 001:882 JLINK_WriteMem(0x20000164, 0x0400 Bytes, ...) - Data: 37 43 1F 60 02 E0 1F 68 B7 43 1F 60 F0 BD 00 00 ... -- CPU_WriteMem(1024 bytes @ 0x20000164)  returns 0x400 (0007ms, 0933ms total)
T1844 001:889 JLINK_ReadMem (0x20000164, 0x0400 Bytes, ...) -- CPU_ReadMem(1088 bytes @ 0x20000140) -- Updating C cache (1088 bytes @ 0x20000140) -- Read from C cache (1024 bytes @ 0x20000164) - Data: 37 43 1F 60 02 E0 1F 68 B7 43 1F 60 F0 BD 00 00 ...  returns 0x00 (0008ms, 0941ms total)
T1844 001:897 JLINK_WriteReg(R0, 0x08002000)  returns 0x00 (0001ms, 0942ms total)
T1844 001:898 JLINK_WriteReg(R1, 0x00000400)  returns 0x00 (0000ms, 0942ms total)
T1844 001:898 JLINK_WriteReg(R2, 0x20000164)  returns 0x00 (0000ms, 0942ms total)
T1844 001:898 JLINK_WriteReg(R3, 0x00000000)  returns 0x00 (0000ms, 0942ms total)
T1844 001:898 JLINK_WriteReg(R4, 0x00000000)  returns 0x00 (0000ms, 0942ms total)
T1844 001:898 JLINK_WriteReg(R5, 0x00000000)  returns 0x00 (0000ms, 0942ms total)
T1844 001:898 JLINK_WriteReg(R6, 0x00000000)  returns 0x00 (0001ms, 0943ms total)
T1844 001:899 JLINK_WriteReg(R7, 0x00000000)  returns 0x00 (0000ms, 0943ms total)
T1844 001:899 JLINK_WriteReg(R8, 0x00000000)  returns 0x00 (0000ms, 0943ms total)
T1844 001:899 JLINK_WriteReg(R9, 0x20000160)  returns 0x00 (0000ms, 0943ms total)
T1844 001:899 JLINK_WriteReg(R10, 0x00000000)  returns 0x00 (0000ms, 0943ms total)
T1844 001:899 JLINK_WriteReg(R11, 0x00000000)  returns 0x00 (0000ms, 0943ms total)
T1844 001:899 JLINK_WriteReg(R12, 0x00000000)  returns 0x00 (0000ms, 0943ms total)
T1844 001:899 JLINK_WriteReg(R13 (SP), 0x20000800)  returns 0x00 (0001ms, 0944ms total)
T1844 001:900 JLINK_WriteReg(R14, 0x20000001)  returns 0x00 (0000ms, 0944ms total)
T1844 001:900 JLINK_WriteReg(R15 (PC), 0x200000F4)  returns 0x00 (0000ms, 0944ms total)
T1844 001:900 JLINK_WriteReg(XPSR, 0x01000000)  returns 0x00 (0000ms, 0944ms total)
T1844 001:900 JLINK_WriteReg(MSP, 0x20000800)  returns 0x00 (0000ms, 0944ms total)
T1844 001:900 JLINK_WriteReg(PSP, 0x20000800)  returns 0x00 (0001ms, 0945ms total)
T1844 001:901 JLINK_WriteReg(CFBP, 0x00000000)  returns 0x00 (0000ms, 0945ms total)
T1844 001:901 JLINK_SetBPEx(Addr = 0x20000000, Type = 0xFFFFFFF2)  returns 0x0000000D (0000ms, 0945ms total)
T1844 001:901 JLINK_Go() (0003ms, 0948ms total)
T1844 001:904 JLINK_IsHalted()  returns FALSE (0001ms, 0949ms total)
T1844 001:955 JLINK_IsHalted() -- CPU_ReadMem(2 bytes @ 0x20000000)  returns TRUE (0006ms, 0954ms total)
T1844 001:961 JLINK_ReadReg(R15 (PC))  returns 0x20000000 (0001ms, 0949ms total)
T1844 001:962 JLINK_ClrBPEx(BPHandle = 0x0000000D)  returns 0x00 (0000ms, 0949ms total)
T1844 001:962 JLINK_ReadReg(R0)  returns 0x00000000 (0000ms, 0949ms total)
T1844 001:963 JLINK_WriteMem(0x20000164, 0x0400 Bytes, ...) - Data: 93 46 11 70 00 28 F4 D1 04 A9 A1 EB 0B 00 00 F1 ... -- CPU_WriteMem(1024 bytes @ 0x20000164)  returns 0x400 (0007ms, 0956ms total)
T1844 001:970 JLINK_ReadMem (0x20000164, 0x0400 Bytes, ...) -- CPU_ReadMem(1088 bytes @ 0x20000140) -- Updating C cache (1088 bytes @ 0x20000140) -- Read from C cache (1024 bytes @ 0x20000164) - Data: 93 46 11 70 00 28 F4 D1 04 A9 A1 EB 0B 00 00 F1 ...  returns 0x00 (0009ms, 0965ms total)
T1844 001:979 JLINK_WriteReg(R0, 0x08002400)  returns 0x00 (0000ms, 0965ms total)
T1844 001:979 JLINK_WriteReg(R1, 0x00000400)  returns 0x00 (0000ms, 0965ms total)
T1844 001:979 JLINK_WriteReg(R2, 0x20000164)  returns 0x00 (0000ms, 0965ms total)
T1844 001:979 JLINK_WriteReg(R3, 0x00000000)  returns 0x00 (0000ms, 0965ms total)
T1844 001:979 JLINK_WriteReg(R4, 0x00000000)  returns 0x00 (0000ms, 0965ms total)
T1844 001:979 JLINK_WriteReg(R5, 0x00000000)  returns 0x00 (0001ms, 0966ms total)
T1844 001:980 JLINK_WriteReg(R6, 0x00000000)  returns 0x00 (0000ms, 0966ms total)
T1844 001:980 JLINK_WriteReg(R7, 0x00000000)  returns 0x00 (0000ms, 0966ms total)
T1844 001:980 JLINK_WriteReg(R8, 0x00000000)  returns 0x00 (0000ms, 0966ms total)
T1844 001:980 JLINK_WriteReg(R9, 0x20000160)  returns 0x00 (0000ms, 0966ms total)
T1844 001:980 JLINK_WriteReg(R10, 0x00000000)  returns 0x00 (0000ms, 0966ms total)
T1844 001:980 JLINK_WriteReg(R11, 0x00000000)  returns 0x00 (0001ms, 0967ms total)
T1844 001:981 JLINK_WriteReg(R12, 0x00000000)  returns 0x00 (0000ms, 0967ms total)
T1844 001:981 JLINK_WriteReg(R13 (SP), 0x20000800)  returns 0x00 (0000ms, 0967ms total)
T1844 001:981 JLINK_WriteReg(R14, 0x20000001)  returns 0x00 (0000ms, 0967ms total)
T1844 001:981 JLINK_WriteReg(R15 (PC), 0x200000F4)  returns 0x00 (0000ms, 0967ms total)
T1844 001:981 JLINK_WriteReg(XPSR, 0x01000000)  returns 0x00 (0000ms, 0967ms total)
T1844 001:981 JLINK_WriteReg(MSP, 0x20000800)  returns 0x00 (0001ms, 0968ms total)
T1844 001:982 JLINK_WriteReg(PSP, 0x20000800)  returns 0x00 (0000ms, 0968ms total)
T1844 001:982 JLINK_WriteReg(CFBP, 0x00000000)  returns 0x00 (0000ms, 0968ms total)
T1844 001:982 JLINK_SetBPEx(Addr = 0x20000000, Type = 0xFFFFFFF2)  returns 0x0000000E (0000ms, 0968ms total)
T1844 001:982 JLINK_Go() (0003ms, 0971ms total)
T1844 001:985 JLINK_IsHalted()  returns FALSE (0001ms, 0972ms total)
T1844 002:036 JLINK_IsHalted() -- CPU_ReadMem(2 bytes @ 0x20000000)  returns TRUE (0007ms, 0978ms total)
T1844 002:043 JLINK_ReadReg(R15 (PC))  returns 0x20000000 (0000ms, 0971ms total)
T1844 002:043 JLINK_ClrBPEx(BPHandle = 0x0000000E)  returns 0x00 (0000ms, 0971ms total)
T1844 002:043 JLINK_ReadReg(R0)  returns 0x00000000 (0000ms, 0971ms total)
T1844 002:045 JLINK_WriteMem(0x20000164, 0x0400 Bytes, ...) - Data: 60 68 69 69 C8 60 00 20 69 69 08 61 69 69 48 61 ... -- CPU_WriteMem(1024 bytes @ 0x20000164)  returns 0x400 (0007ms, 0978ms total)
T1844 002:052 JLINK_ReadMem (0x20000164, 0x0400 Bytes, ...) -- CPU_ReadMem(1088 bytes @ 0x20000140) -- Updating C cache (1088 bytes @ 0x20000140) -- Read from C cache (1024 bytes @ 0x20000164) - Data: 60 68 69 69 C8 60 00 20 69 69 08 61 69 69 48 61 ...  returns 0x00 (0008ms, 0986ms total)
T1844 002:060 JLINK_WriteReg(R0, 0x08002800)  returns 0x00 (0001ms, 0987ms total)
T1844 002:061 JLINK_WriteReg(R1, 0x00000400)  returns 0x00 (0000ms, 0987ms total)
T1844 002:061 JLINK_WriteReg(R2, 0x20000164)  returns 0x00 (0000ms, 0987ms total)
T1844 002:061 JLINK_WriteReg(R3, 0x00000000)  returns 0x00 (0000ms, 0987ms total)
T1844 002:061 JLINK_WriteReg(R4, 0x00000000)  returns 0x00 (0000ms, 0987ms total)
T1844 002:061 JLINK_WriteReg(R5, 0x00000000)  returns 0x00 (0000ms, 0987ms total)
T1844 002:061 JLINK_WriteReg(R6, 0x00000000)  returns 0x00 (0000ms, 0987ms total)
T1844 002:061 JLINK_WriteReg(R7, 0x00000000)  returns 0x00 (0001ms, 0988ms total)
T1844 002:062 JLINK_WriteReg(R8, 0x00000000)  returns 0x00 (0000ms, 0988ms total)
T1844 002:062 JLINK_WriteReg(R9, 0x20000160)  returns 0x00 (0000ms, 0988ms total)
T1844 002:062 JLINK_WriteReg(R10, 0x00000000)  returns 0x00 (0000ms, 0988ms total)
T1844 002:062 JLINK_WriteReg(R11, 0x00000000)  returns 0x00 (0000ms, 0988ms total)
T1844 002:062 JLINK_WriteReg(R12, 0x00000000)  returns 0x00 (0000ms, 0988ms total)
T1844 002:062 JLINK_WriteReg(R13 (SP), 0x20000800)  returns 0x00 (0000ms, 0988ms total)
T1844 002:062 JLINK_WriteReg(R14, 0x20000001)  returns 0x00 (0001ms, 0989ms total)
T1844 002:063 JLINK_WriteReg(R15 (PC), 0x200000F4)  returns 0x00 (0000ms, 0989ms total)
T1844 002:063 JLINK_WriteReg(XPSR, 0x01000000)  returns 0x00 (0000ms, 0989ms total)
T1844 002:063 JLINK_WriteReg(MSP, 0x20000800)  returns 0x00 (0000ms, 0989ms total)
T1844 002:063 JLINK_WriteReg(PSP, 0x20000800)  returns 0x00 (0000ms, 0989ms total)
T1844 002:063 JLINK_WriteReg(CFBP, 0x00000000)  returns 0x00 (0000ms, 0989ms total)
T1844 002:063 JLINK_SetBPEx(Addr = 0x20000000, Type = 0xFFFFFFF2)  returns 0x0000000F (0000ms, 0989ms total)
T1844 002:063 JLINK_Go() (0003ms, 0992ms total)
T1844 002:066 JLINK_IsHalted()  returns FALSE (0001ms, 0993ms total)
T1844 002:117 JLINK_IsHalted() -- CPU_ReadMem(2 bytes @ 0x20000000)  returns TRUE (0007ms, 0999ms total)
T1844 002:124 JLINK_ReadReg(R15 (PC))  returns 0x20000000 (0000ms, 0992ms total)
T1844 002:124 JLINK_ClrBPEx(BPHandle = 0x0000000F)  returns 0x00 (0000ms, 0992ms total)
T1844 002:124 JLINK_ReadReg(R0)  returns 0x00000000 (0000ms, 0992ms total)
T1844 002:125 JLINK_WriteMem(0x20000164, 0x0400 Bytes, ...) - Data: 02 83 42 69 F0 32 13 55 C1 F3 07 43 04 8B 62 1C ... -- CPU_WriteMem(1024 bytes @ 0x20000164)  returns 0x400 (0008ms, 1000ms total)
T1844 002:133 JLINK_ReadMem (0x20000164, 0x0400 Bytes, ...) -- CPU_ReadMem(1088 bytes @ 0x20000140) -- Updating C cache (1088 bytes @ 0x20000140) -- Read from C cache (1024 bytes @ 0x20000164) - Data: 02 83 42 69 F0 32 13 55 C1 F3 07 43 04 8B 62 1C ...  returns 0x00 (0008ms, 1008ms total)
T1844 002:141 JLINK_WriteReg(R0, 0x08002C00)  returns 0x00 (0000ms, 1008ms total)
T1844 002:141 JLINK_WriteReg(R1, 0x00000400)  returns 0x00 (0000ms, 1008ms total)
T1844 002:141 JLINK_WriteReg(R2, 0x20000164)  returns 0x00 (0001ms, 1009ms total)
T1844 002:142 JLINK_WriteReg(R3, 0x00000000)  returns 0x00 (0000ms, 1009ms total)
T1844 002:142 JLINK_WriteReg(R4, 0x00000000)  returns 0x00 (0000ms, 1009ms total)
T1844 002:142 JLINK_WriteReg(R5, 0x00000000)  returns 0x00 (0000ms, 1009ms total)
T1844 002:142 JLINK_WriteReg(R6, 0x00000000)  returns 0x00 (0000ms, 1009ms total)
T1844 002:142 JLINK_WriteReg(R7, 0x00000000)  returns 0x00 (0000ms, 1009ms total)
T1844 002:142 JLINK_WriteReg(R8, 0x00000000)  returns 0x00 (0000ms, 1009ms total)
T1844 002:143 JLINK_WriteReg(R9, 0x20000160)  returns 0x00 (0000ms, 1010ms total)
T1844 002:143 JLINK_WriteReg(R10, 0x00000000)  returns 0x00 (0000ms, 1010ms total)
T1844 002:143 JLINK_WriteReg(R11, 0x00000000)  returns 0x00 (0000ms, 1010ms total)
T1844 002:143 JLINK_WriteReg(R12, 0x00000000)  returns 0x00 (0000ms, 1010ms total)
T1844 002:143 JLINK_WriteReg(R13 (SP), 0x20000800)  returns 0x00 (0000ms, 1010ms total)
T1844 002:143 JLINK_WriteReg(R14, 0x20000001)  returns 0x00 (0000ms, 1010ms total)
T1844 002:143 JLINK_WriteReg(R15 (PC), 0x200000F4)  returns 0x00 (0000ms, 1010ms total)
T1844 002:144 JLINK_WriteReg(XPSR, 0x01000000)  returns 0x00 (0000ms, 1011ms total)
T1844 002:144 JLINK_WriteReg(MSP, 0x20000800)  returns 0x00 (0000ms, 1011ms total)
T1844 002:144 JLINK_WriteReg(PSP, 0x20000800)  returns 0x00 (0000ms, 1011ms total)
T1844 002:144 JLINK_WriteReg(CFBP, 0x00000000)  returns 0x00 (0000ms, 1011ms total)
T1844 002:144 JLINK_SetBPEx(Addr = 0x20000000, Type = 0xFFFFFFF2)  returns 0x00000010 (0000ms, 1011ms total)
T1844 002:144 JLINK_Go() (0003ms, 1014ms total)
T1844 002:147 JLINK_IsHalted()  returns FALSE (0001ms, 1015ms total)
T1844 002:198 JLINK_IsHalted() -- CPU_ReadMem(2 bytes @ 0x20000000)  returns TRUE (0007ms, 1021ms total)
T1844 002:205 JLINK_ReadReg(R15 (PC))  returns 0x20000000 (0000ms, 1014ms total)
T1844 002:205 JLINK_ClrBPEx(BPHandle = 0x00000010)  returns 0x00 (0000ms, 1014ms total)
T1844 002:205 JLINK_ReadReg(R0)  returns 0x00000000 (0000ms, 1014ms total)
T1844 002:206 JLINK_WriteMem(0x20000164, 0x0400 Bytes, ...) - Data: FF F6 9A AE 00 BF 16 48 00 78 A0 B1 15 49 08 68 ... -- CPU_WriteMem(1024 bytes @ 0x20000164)  returns 0x400 (0008ms, 1022ms total)
T1844 002:214 JLINK_ReadMem (0x20000164, 0x0400 Bytes, ...) -- CPU_ReadMem(1088 bytes @ 0x20000140) -- Updating C cache (1088 bytes @ 0x20000140) -- Read from C cache (1024 bytes @ 0x20000164) - Data: FF F6 9A AE 00 BF 16 48 00 78 A0 B1 15 49 08 68 ...  returns 0x00 (0008ms, 1030ms total)
T1844 002:222 JLINK_WriteReg(R0, 0x08003000)  returns 0x00 (0000ms, 1030ms total)
